<Qucs Dataset 1.0.3>
<indep time 200>
  +0.00000000000000000000e+00
  +5.02512562814070391889e-10
  +1.00502512562814078378e-09
  +1.50753768844221107227e-09
  +2.01005025125628156756e-09
  +2.51256281407035206284e-09
  +3.01507537688442214454e-09
  +3.51758793969849263983e-09
  +4.02010050251256313511e-09
  +4.52261306532663363040e-09
  +5.02512562814070412569e-09
  +5.52763819095477462097e-09
  +6.03015075376884428908e-09
  +6.53266331658291478436e-09
  +7.03517587939698527965e-09
  +7.53768844221105577494e-09
  +8.04020100502512627022e-09
  +8.54271356783919676551e-09
  +9.04522613065326726080e-09
  +9.54773869346733775608e-09
  +1.00502512562814082514e-08
  +1.05527638190954787467e-08
  +1.10552763819095492419e-08
  +1.15577889447236197372e-08
  +1.20603015075376885782e-08
  +1.25628140703517590734e-08
  +1.30653266331658295687e-08
  +1.35678391959799000640e-08
  +1.40703517587939705593e-08
  +1.45728643216080410546e-08
  +1.50753768844221115499e-08
  +1.55778894472361820452e-08
  +1.60804020100502525404e-08
  +1.65829145728643230357e-08
  +1.70854271356783935310e-08
  +1.75879396984924640263e-08
  +1.80904522613065345216e-08
  +1.85929648241206050169e-08
  +1.90954773869346755122e-08
  +1.95979899497487460075e-08
  +2.01005025125628165027e-08
  +2.06030150753768869980e-08
  +2.11055276381909574933e-08
  +2.16080402010050279886e-08
  +2.21105527638190984839e-08
  +2.26130653266331689792e-08
  +2.31155778894472394745e-08
  +2.36180904522613099697e-08
  +2.41206030150753771563e-08
  +2.46231155778894476516e-08
  +2.51256281407035181469e-08
  +2.56281407035175886422e-08
  +2.61306532663316591375e-08
  +2.66331658291457296327e-08
  +2.71356783919598001280e-08
  +2.76381909547738706233e-08
  +2.81407035175879411186e-08
  +2.86432160804020116139e-08
  +2.91457286432160821092e-08
  +2.96482412060301526045e-08
  +3.01507537688442230998e-08
  +3.06532663316582935950e-08
  +3.11557788944723640903e-08
  +3.16582914572864345856e-08
  +3.21608040201005050809e-08
  +3.26633165829145755762e-08
  +3.31658291457286460715e-08
  +3.36683417085427165668e-08
  +3.41708542713567870620e-08
  +3.46733668341708575573e-08
  +3.51758793969849280526e-08
  +3.56783919597989985479e-08
  +3.61809045226130690432e-08
  +3.66834170854271395385e-08
  +3.71859296482412100338e-08
  +3.76884422110552805291e-08
  +3.81909547738693510243e-08
  +3.86934673366834215196e-08
  +3.91959798994974920149e-08
  +3.96984924623115625102e-08
  +4.02010050251256330055e-08
  +4.07035175879397035008e-08
  +4.12060301507537739961e-08
  +4.17085427135678444913e-08
  +4.22110552763819149866e-08
  +4.27135678391959854819e-08
  +4.32160804020100559772e-08
  +4.37185929648241264725e-08
  +4.42211055276381969678e-08
  +4.47236180904522674631e-08
  +4.52261306532663379584e-08
  +4.57286432160804084536e-08
  +4.62311557788944789489e-08
  +4.67336683417085494442e-08
  +4.72361809045226199395e-08
  +4.77386934673366904348e-08
  +4.82412060301507543126e-08
  +4.87437185929648248079e-08
  +4.92462311557788953032e-08
  +4.97487437185929657985e-08
  +5.02512562814070362938e-08
  +5.07537688442211067891e-08
  +5.12562814070351772843e-08
  +5.17587939698492477796e-08
  +5.22613065326633182749e-08
  +5.27638190954773887702e-08
  +5.32663316582914592655e-08
  +5.37688442211055297608e-08
  +5.42713567839196002561e-08
  +5.47738693467336707514e-08
  +5.52763819095477412466e-08
  +5.57788944723618117419e-08
  +5.62814070351758822372e-08
  +5.67839195979899527325e-08
  +5.72864321608040232278e-08
  +5.77889447236180937231e-08
  +5.82914572864321642184e-08
  +5.87939698492462347136e-08
  +5.92964824120603052089e-08
  +5.97989949748743823217e-08
  +6.03015075376884461995e-08
  +6.08040201005025233122e-08
  +6.13065326633165871901e-08
  +6.18090452261306643028e-08
  +6.23115577889447281807e-08
  +6.28140703517588052934e-08
  +6.33165829145728691712e-08
  +6.38190954773869462840e-08
  +6.43216080402010101618e-08
  +6.48241206030150740396e-08
  +6.53266331658291511524e-08
  +6.58291457286432150302e-08
  +6.63316582914572921429e-08
  +6.68341708542713560208e-08
  +6.73366834170854331335e-08
  +6.78391959798994970114e-08
  +6.83417085427135741241e-08
  +6.88442211055276380019e-08
  +6.93467336683417151147e-08
  +6.98492462311557789925e-08
  +7.03517587939698561052e-08
  +7.08542713567839199831e-08
  +7.13567839195979970958e-08
  +7.18592964824120609737e-08
  +7.23618090452261380864e-08
  +7.28643216080402019642e-08
  +7.33668341708542790770e-08
  +7.38693467336683429548e-08
  +7.43718592964824200675e-08
  +7.48743718592964839454e-08
  +7.53768844221105610581e-08
  +7.58793969849246249359e-08
  +7.63819095477387020487e-08
  +7.68844221105527659265e-08
  +7.73869346733668430392e-08
  +7.78894472361809069171e-08
  +7.83919597989949840298e-08
  +7.88944723618090479077e-08
  +7.93969849246231250204e-08
  +7.98994974874371888982e-08
  +8.04020100502512660110e-08
  +8.09045226130653298888e-08
  +8.14070351758794070015e-08
  +8.19095477386934708794e-08
  +8.24120603015075479921e-08
  +8.29145728643216118700e-08
  +8.34170854271356889827e-08
  +8.39195979899497528605e-08
  +8.44221105527638299733e-08
  +8.49246231155778938511e-08
  +8.54271356783919709638e-08
  +8.59296482412060348417e-08
  +8.64321608040201119544e-08
  +8.69346733668341758322e-08
  +8.74371859296482529450e-08
  +8.79396984924623168228e-08
  +8.84422110552763939356e-08
  +8.89447236180904578134e-08
  +8.94472361809045349261e-08
  +8.99497487437185988040e-08
  +9.04522613065326759167e-08
  +9.09547738693467397945e-08
  +9.14572864321608169073e-08
  +9.19597989949748807851e-08
  +9.24623115577889578978e-08
  +9.29648241206030217757e-08
  +9.34673366834170988884e-08
  +9.39698492462311627663e-08
  +9.44723618090452398790e-08
  +9.49748743718593037568e-08
  +9.54773869346733808696e-08
  +9.59798994974874447474e-08
  +9.64824120603015086252e-08
  +9.69849246231155857380e-08
  +9.74874371859296496158e-08
  +9.79899497487437267286e-08
  +9.84924623115577906064e-08
  +9.89949748743718677191e-08
  +9.94974874371859315970e-08
  +1.00000000000000008710e-07
</indep>
<indep acfrequency 1>
  +1.60000000000000000000e+09
</indep>
<dep Pr1.It time>
  -0.00000000000000000000e+00
  -9.42948494867437009281e-03
  -6.27887973340858236010e-03
  +5.24852162764469307860e-03
  +9.77375100766707249900e-03
  +1.25959705067718000411e-03
  -8.93501395714875121246e-03
  -7.20921978814715279371e-03
  +4.13455833652134722989e-03
  +9.96232822271006686343e-03
  +2.49912962370309231844e-03
  -8.29821460135724865703e-03
  -8.02472214201575134718e-03
  +2.95473449634673637418e-03
  +9.99221269401275730138e-03
  +3.69885285416544787665e-03
  -7.52923063833377953502e-03
  -8.71239642738459198201e-03
  +1.72784385474099300151e-03
  +9.86292838338002561538e-03
  +4.83965601142840370213e-03
  -6.64031143110429232512e-03
  -9.26128848607842523888e-03
  +4.73429899715537298634e-04
  +9.57653469715932098572e-03
  +5.90336691936521607005e-03
  -5.64561682511924289862e-03
  -9.66265486126020173296e-03
  -7.88525454074705234829e-04
  +9.13759368137438861279e-03
  +1.29538426904592298555e-02
  -1.00267913609895856220e-02
  -1.96322705102249424336e-02
  -3.04490039566485907324e-03
  +1.76034387760178254179e-02
  +1.47670005999622818565e-02
  -7.77093289467802646880e-03
  -1.99418716117275574007e-02
  -5.50751503763235571859e-03
  +1.62731716703922620060e-02
  +1.63442761731295467531e-02
  -5.39096420459177824019e-03
  -1.99333136675882600930e-02
  -7.88247117828783268323e-03
  +1.46839332451966873144e-02
  +1.76598796690172442359e-02
  -2.92483469550947451990e-03
  -1.96061486059979014906e-02
  -1.01311193635588228656e-02
  +1.28610700789175049635e-02
  +1.86957009803632272227e-02
  -4.12172724430517835228e-04
  -1.89671559139929640780e-02
  -1.22203909542640057340e-02
  +1.08329001089394558882e-02
  +1.94322396124341906232e-02
  +2.10676489508208365786e-03
  -1.80276739501491617412e-02
  -1.41132489817685537192e-02
  +8.63283341705502887953e-03
  +1.98580812326442611437e-02
  +4.59211164054128956336e-03
  -1.68019266931889697803e-02
  -1.57811755442795881299e-02
  +6.29581821030649000509e-03
  +1.99694591450266870081e-02
  +7.00436439526299844949e-03
  -1.53074959088796407752e-02
  -1.71985583933805460943e-02
  +3.85752909009120939846e-03
  +1.97645365275258763638e-02
  +9.30486344320888107695e-03
  -1.35689345590225274307e-02
  -1.83413734839865359694e-02
  +1.35715834933519620582e-03
  +1.92434392917055774319e-02
  +1.14572647401916458132e-02
  -1.16162162169348975177e-02
  -1.91909831423680565798e-02
  -1.16395986600568361428e-03
  +1.84163608064581880985e-02
  +1.34268881065874780972e-02
  -9.47648259562092892816e-03
  -1.97360036152652573715e-02
  -3.66699307585944362861e-03
  +1.72956406203951668088e-02
  +1.51827204553252811947e-02
  -7.18624030361726413157e-03
  -1.99656414276173747868e-02
  -6.11118524179450704065e-03
  +1.58977266076857012833e-02
  +1.66969477390597857702e-02
  -4.78081769157813907950e-03
  -1.98779759820680718141e-02
  -8.45850363892425988199e-03
  +1.42490848406679315036e-02
  +1.79450348617509365667e-02
  -2.29920960119579798064e-03
  -1.94748012015300356325e-02
  -1.06709928712706274972e-02
  +1.23720929424627219123e-02
  +1.89073768509045100905e-02
  +2.18514707700923202158e-04
  -1.87614585194709852789e-02
  -1.27138003437225321351e-02
  +1.02978835167313667598e-02
  +1.95686773903838429067e-02
  +2.73306023318351356058e-03
  -1.77500872323747421744e-02
  -1.45519868025004231460e-02
  +8.05987026281682755746e-03
  +1.99173888964919998390e-02
  +5.20403551228536959128e-03
  -1.64529321038099814178e-02
  -1.61599313316805603957e-02
  +5.69404653974347682577e-03
  +1.99476924364380518717e-02
  +7.59123618493610062552e-03
  -1.48954443638252016086e-02
  -1.75092901135075820762e-02
  +3.23623115825943290583e-03
  +1.96624504836289022702e-02
  +9.85954499186556497514e-03
  -1.31006056080613664250e-02
  -1.85808826131969029305e-02
  +7.27431682408078567059e-04
  +1.90637209812557599509e-02
  +1.19700502428860301729e-02
  -1.10964946111051388639e-02
  -1.93553332322841248336e-02
  -1.79293391800505806481e-03
  +1.81617982882596243344e-02
  +1.38886668990091007025e-02
  -8.91565350604901253606e-03
  -1.98225500748468314027e-02
  -4.28511119332587123859e-03
  +1.69709633532978305948e-02
  +1.55851990475904360334e-02
  -6.59416234505246813546e-03
  -1.99731300068269057579e-02
  -6.70819883025481570465e-03
  +1.55089110606927114977e-02
  +1.70359738004471211736e-02
  -4.16583053512928607603e-03
  -1.98063897156194601568e-02
  -9.02467045549696852969e-03
  +1.37995751851733676474e-02
  +1.82128000399441290769e-02
  -1.67155017793184541841e-03
  -1.93246395448722282917e-02
  -1.11978679925156983377e-02
  +1.18714595670532836735e-02
  +1.91028002385749719194e-02
  +8.49054067063607941813e-04
  -1.85353405670754603496e-02
  -1.31920383443625815340e-02
  +9.75284222839805335636e-03
  +1.96850717528810441326e-02
  +3.35660786742340020231e-03
  -1.74502128176093791734e-02
  -1.49766904050861113240e-02
  +7.47882828257624612117e-03
  +1.99543047641758918009e-02
  +5.81034324109362763228e-03
  -1.60870182659883231846e-02
  -1.65224556238778193251e-02
  +5.08611545695377125637e-03
  +1.99059035277849086243e-02
  +8.17152951201075526677e-03
  -1.44682943831654902550e-02
  -1.78048815113761721429e-02
  +2.61249377002948247189e-03
  +1.95423587080868453592e-02
  +1.04022381408187310908e-02
  -1.26190200685883536363e-02
  -1.88033575365601085538e-02
  +9.67970693885052108725e-05
  +1.88674795568314485061e-02
  +1.24682937446849578800e-02
  -1.05664403226603791780e-02
  -1.95029843751880309355e-02
  -2.42012642743565618841e-03
  +1.78906257322571510260e-02
  +1.43339939101425756229e-02
  -8.34720929892455131005e-03
  -1.98901564686234239021e-02
  -4.89850309433229220979e-03
  +1.66293033107729505693e-02
  +1.59716636219468625935e-02
  -5.99486303908128206203e-03
  -1.99609725171798410570e-02
  -7.29884792356984453410e-03
  +1.51036546981596474931e-02
  +1.73549920502037470504e-02
  -3.54665392965720959254e-03
  -1.97156126039682126627e-02
  -9.58363957712747224771e-03
  +1.33363973037512410086e-02
  +1.84625719816046800215e-02
  -1.04230864402319592030e-03
</dep>
<dep Pr2.It time>
  +0.00000000000000000000e+00
  +0.00000000000000000000e+00
  +0.00000000000000000000e+00
  +0.00000000000000000000e+00
  +0.00000000000000000000e+00
  +0.00000000000000000000e+00
  +0.00000000000000000000e+00
  +0.00000000000000000000e+00
  +0.00000000000000000000e+00
  +0.00000000000000000000e+00
  +0.00000000000000000000e+00
  -8.48856017498252589382e-03
  -7.81342351084812931916e-03
  +3.28580047738862793955e-03
  +1.00013633758351521558e-02
  +3.37351071182326279693e-03
  -7.75488910183718110208e-03
  -8.53760447995075694161e-03
  +2.06981130222634330390e-03
  +9.91521248250713804762e-03
  +9.34436909436297917508e-03
  -1.40460961321158921133e-02
  -1.81071285433378019458e-02
  +1.98816320264665101838e-03
  +1.94313688474191670341e-02
  +1.09468948817384240102e-02
  -1.21384780233826702206e-02
  -1.90329736919694694763e-02
  -5.34643858555115900760e-04
  +1.86782830998529145172e-02
  +1.29706670855973520834e-02
  -1.00388618785519495580e-02
  -1.96552646896614689742e-02
  -3.04880791353128507287e-03
  +1.76249448999351576717e-02
  +1.47844660864375129772e-02
  -7.78002811521929030225e-03
  -1.99633609887641776115e-02
  -5.51419152330289569219e-03
  +1.62926245232889559122e-02
  +1.63647930832823557123e-02
  -5.39692607272844720318e-03
  -1.99537569000854814183e-02
  -7.89233932981609105639e-03
  +1.47005127809881966372e-02
  +1.76804689733749825775e-02
  -2.92811682575076391230e-03
  -1.96278302801764920060e-02
  -1.01429917665231978524e-02
  +1.28753204323141193927e-02
  +1.87176604123734866003e-02
  -4.12487908326246910037e-04
  -1.89900666580766555591e-02
  -1.22357786159366672268e-02
  +1.08465802509494294026e-02
  +1.94557367862549304705e-02
  +2.10945066210530083467e-03
  -1.80496149917042901512e-02
  -1.41316304162526721472e-02
  +8.64330186216942172872e-03
  +1.98823620993405954238e-02
  +4.59775892676485102573e-03
  -1.68227897231899570230e-02
  -1.58000157923427440865e-02
  +6.30321366722590235160e-03
  +1.99938646181321115491e-02
  +7.01299735325773467703e-03
  -1.53269032433070682975e-02
  -1.72192116644943500614e-02
  +3.86197875098374943104e-03
  +1.97901171116007697226e-02
  +9.31670141692762278363e-03
  -1.35855360052938994864e-02
  -1.83637996282395785097e-02
  +1.35859465315417752250e-03
  +1.92672276402490530445e-02
  +1.14712521779524404680e-02
  -1.16309370078193329012e-02
  -1.92146808689024235772e-02
  -1.16565053077137222894e-03
  +1.84379585527390046917e-02
  +1.34427881840152446680e-02
  -9.48780831079650173454e-03
  -1.97598998150671154028e-02
  -3.67188028628062006556e-03
  +1.73154329265462446352e-02
  +1.52019146135652285373e-02
  -7.19481340491760421041e-03
  -1.99893772194180419088e-02
  -6.11879544346361804730e-03
  +1.59164934595961288233e-02
  +1.67166494065322385199e-02
  -4.78652528104137140602e-03
  -1.99022707552316338586e-02
  -8.46903446666685821853e-03
  +1.42665226468492237211e-02
  +1.79663699570435167474e-02
  -2.30178359273978906316e-03
  -1.94984576741657755772e-02
  -1.06843408455338153423e-02
  +1.23882156791879464997e-02
  +1.89302307630925745197e-02
  +2.18967562246928626989e-04
  -1.87838130064587986723e-02
  -1.27290047617581985467e-02
  +1.03106135911388858278e-02
  +1.95923312684417524898e-02
  +2.73678736027597622679e-03
  -1.77713213908677197805e-02
  -1.45698381595870170985e-02
  +8.06980203186223252199e-03
  +1.99421289457722451799e-02
  +5.21113886513939646161e-03
  -1.64719798408890019670e-02
  -1.61803548016380138730e-02
  +5.70083563797619749525e-03
  +1.99717854241614929667e-02
  +7.60078567437752830593e-03
  -1.49133091970513349117e-02
  -1.75307674574464271433e-02
  +3.23988079873874582071e-03
  +1.96859703320070959787e-02
  +9.87209551003204177633e-03
  -1.31169236580951278220e-02
  -1.86028610837094508790e-02
  +7.28176143348420131830e-04
  +1.90867449076979542322e-02
  +1.19849506160464545912e-02
  -1.11096887940052672927e-02
  -1.93787855776937772978e-02
  -1.79513860967314524408e-03
  +1.81842912934327520513e-02
  +1.39059985775065800273e-02
  -8.92634360447638192104e-03
  -1.98463041854191023228e-02
  -4.29044185370504142785e-03
  +1.69916164729469743033e-02
  +1.56034833898788180551e-02
  -6.60231488522591749429e-03
  -1.99972427778052665170e-02
  -6.71624235902878313764e-03
  +1.55284756783605586150e-02
  +1.70576375787518316751e-02
  -4.17083278430423198824e-03
  -1.98305318863660103024e-02
  -9.03524487171368170801e-03
  +1.38167123510829891603e-02
  +1.82347945822907350766e-02
  -1.67339593777055548399e-03
  -1.93478576270648718050e-02
  -1.12114835226940108559e-02
  +1.18858244455116099370e-02
  +1.91257406161087009644e-02
  +8.50271928375261856932e-04
  -1.85583173921606628398e-02
  -1.32078290002629900740e-02
  +9.76468699636916931395e-03
  +1.97087260756234582126e-02
  +3.36134796980038777145e-03
  -1.74723610055501320237e-02
  -1.49952766228901562123e-02
  +7.48760892768884044057e-03
  +1.99781610203644231782e-02
  +5.81736537563229925973e-03
  -1.61071879890605923480e-02
  -1.65430131747938830022e-02
  +5.09214687772455848469e-03
  +1.99301301911462697136e-02
  +8.18172597340409077371e-03
  -1.44858503150256771874e-02
  -1.78269279450922954466e-02
  +2.61557400328346493015e-03
  +1.95658241391133101705e-02
  +1.04148048618736884657e-02
  -1.26347983852643334923e-02
  -1.88265305749501857258e-02
  +9.67179609665850360334e-05
  +1.88892950862401126644e-02
  +1.24822204418110292018e-02
  -1.05788917241143413939e-02
  -1.95249912633424886621e-02
  -2.42334997293847933739e-03
  +1.79117182238434612118e-02
  +1.43519949620166589049e-02
  -8.35693305718336262866e-03
  -1.99140700862794860215e-02
  -4.90462430486044743960e-03
  +1.66494365919333635329e-02
  +1.59916378299915472316e-02
  -6.00205317701129736213e-03
  -1.99851782638136403480e-02
  -7.30739588826229136131e-03
  +1.51208825043603195537e-02
  +1.73757993491360368532e-02
  -3.55100306332712094964e-03
  -1.97402025068558230336e-02
  -9.59562510417044135791e-03
  +1.33526292234389439700e-02
  +1.84850198220201239474e-02
  -1.04342958075126935463e-03
</dep>
<dep Pr3.It time>
  +0.00000000000000000000e+00
  +0.00000000000000000000e+00
  +0.00000000000000000000e+00
  +0.00000000000000000000e+00
  +0.00000000000000000000e+00
  +0.00000000000000000000e+00
  +0.00000000000000000000e+00
  +0.00000000000000000000e+00
  +0.00000000000000000000e+00
  +0.00000000000000000000e+00
  +0.00000000000000000000e+00
  +0.00000000000000000000e+00
  +0.00000000000000000000e+00
  +0.00000000000000000000e+00
  +0.00000000000000000000e+00
  +9.63507350974998448556e-03
  -1.57279438772843019323e-02
  -1.68919606777339255388e-02
  +4.47962919641904742246e-03
  +1.98736523551185789715e-02
  +8.75394251611690855930e-03
  -1.40486273521901669503e-02
  -1.81103928053293339318e-02
  +1.98849364760166806912e-03
  +1.94344361719211676520e-02
  +1.09485853969797271301e-02
  -1.21403006876387112994e-02
  -1.90370219229274717510e-02
  -5.34731900094679766210e-04
  +1.86807204708476989885e-02
  +1.29723408130239109548e-02
  -1.00409477201733425555e-02
  -1.96581893257933709718e-02
  -3.04931523400132518595e-03
  +1.76289220234260406162e-02
  +1.47873650653752748696e-02
  -7.78085179842346458257e-03
  -1.99644070456848586603e-02
  -5.51524032411331629339e-03
  +1.62944629576930177794e-02
  +1.63665066910613152262e-02
  -5.39762347065516918249e-03
  -1.99563037169548096461e-02
  -7.89333063970658332931e-03
  +1.47022438788371196533e-02
  +1.76831625153609645063e-02
  -2.92853338288821688287e-03
  -1.96307102299233988962e-02
  -1.01447402577316894701e-02
  +1.28769525596111340110e-02
  +1.87215436474393280564e-02
  -4.12553255836351363394e-04
  -1.89929438571091110943e-02
  -1.22378298629917600659e-02
  +1.08480585614311193093e-02
  +1.94582978458647422315e-02
  +2.10974225127729233045e-03
  -1.80523422385416645874e-02
  -1.41338113309160372244e-02
  +8.64457105264039571413e-03
